<Qucs Dataset 0.0.15>
<indep x 10>
  +5.00000000000e+00
  +5.22222222222e+00
  +5.44444444444e+00
  +5.66666666667e+00
  +5.88888888889e+00
  +6.11111111111e+00
  +6.33333333333e+00
  +6.55555555556e+00
  +6.77777777778e+00
  +7.00000000000e+00
</indep>
<dep V1.I x>
  -1.21666666667e+00
  -1.21666666667e+00
  -1.21666666667e+00
  -1.21666666667e+00
  -1.21666666667e+00
  -1.21666666667e+00
  -1.21666666667e+00
  -1.21666666667e+00
  -1.21666666667e+00
  -1.21666666667e+00
</dep>
<dep Izeja.V x>
  +8.51666666667e+00
  +8.51666666667e+00
  +8.51666666667e+00
  +8.51666666667e+00
  +8.51666666667e+00
  +8.51666666667e+00
  +8.51666666667e+00
  +8.51666666667e+00
  +8.51666666667e+00
  +8.51666666667e+00
</dep>
<dep _net0.V x>
  +1.46000000000e+01
  +1.46000000000e+01
  +1.46000000000e+01
  +1.46000000000e+01
  +1.46000000000e+01
  +1.46000000000e+01
  +1.46000000000e+01
  +1.46000000000e+01
  +1.46000000000e+01
  +1.46000000000e+01
</dep>
